
T1C30 000:535 SEGGER J-Link V4.84d Log File (0001ms, 0293ms total)
T1C30 000:535 DLL Compiled: Apr 25 2014 20:45:03 (0001ms, 0293ms total)
T1C30 000:535 Logging started @ 2014-05-13 19:48 (0001ms, 0293ms total)
T1C30 000:536 JLINK_SetWarnOutHandler(...) (0000ms, 0293ms total)
T1C30 000:536 JLINK_OpenEx(...)
Firmware: J-Link Lite-Cortex-M V8 compiled Aug 29 2012 15:24:23
Hardware: V8.00
S/N: 398000994
OEM: IAR  returns O.K. (0290ms, 0583ms total)
T1C30 000:826 JLINK_SetErrorOutHandler(...) (0000ms, 0583ms total)
T1C30 000:826 JLINK_ExecCommand("ProjectFile = "C:\ProgramData\Processor Expert\CWMCU_PE5_00\Examples\Keil\FRDM-K64F\FRDM-K64F_BlinkLed_Keil\JLinkSettings.ini"", ...)  returns 0x00 (0002ms, 0585ms total)
T1C30 000:828 JLINK_ExecCommand("Device = MK64FN1M0xxx12", ...)Device "MK64FN1M0XXX12" selected (1024 KB flash, 192 KB RAM).  returns 0x00 (0002ms, 0587ms total)
T1C30 000:830 JLINK_ExecCommand("DisableConnectionTimeout", ...)  returns 0x01 (0000ms, 0587ms total)
T1C30 000:830 JLINK_GetHardwareVersion()  returns 0x13880 (0000ms, 0587ms total)
T1C30 000:830 JLINK_GetDLLVersion()  returns 48404 (0000ms, 0587ms total)
T1C30 000:833 JLINK_GetDLLVersion()  returns 48404 (0000ms, 0587ms total)
T1C30 000:833 JLINK_GetCompileDateTime() (0000ms, 0587ms total)
T1C30 000:834 JLINK_GetFirmwareString(...) (0000ms, 0587ms total)
T1C30 000:836 JLINK_GetHardwareVersion()  returns 0x13880 (0000ms, 0587ms total)
T1C30 000:838 JLINK_TIF_Select(JLINKARM_TIF_SWD)  returns 0x00 (0002ms, 0589ms total)
T1C30 000:840 JLINK_SetSpeed(2000) (0001ms, 0590ms total)
T1C30 000:841 JLINK_GetId() >0x108 TIF>Found SWD-DP with ID 0x2BA01477 >0x0D TIF> >0x28 TIF> >0x0D TIF> >0x28 TIF> >0x0D TIF> >0x21 TIF> >0x0D TIF> >0x28 TIF> >0x0D TIF> >0x21 TIF> >0x0D TIF> >0x21 TIF> >0x0D TIF> >0x21 TIF> >0x0D TIF> >0x21 TIF> >0x0D TIF> >0x21 TIF> >0x0D TIF> >0x21 TIF> >0x0D TIF> >0x21 TIF> >0x0D TIF> >0x21 TIF> >0x0D TIF> >0x21 TIF> >0x0D TIF> >0x21 TIF> >0x108 TIF>Found SWD-DP with ID 0x2BA01477 >0x0D TIF> >0x21 TIF> >0x0D TIF> >0x28 TIF> >0x0D TIF> >0x28 TIF> >0x0D TIF> >0x21 TIF>
 >0x0D TIF> >0x28 TIF> >0x0D TIF> >0x21 TIF> >0x0D TIF> >0x21 TIF> >0x0D TIF> >0x21 TIF> >0x0D TIF> >0x21 TIF> >0x0D TIF> >0x28 TIF> >0x0D TIF> >0x28 TIF> >0x0D TIF> >0x21 TIF> >0x0D TIF> >0x28 TIF> >0x0D TIF> >0x28 TIF> >0x0D TIF> >0x28 TIF> >0x0D TIF> >0x21 TIF> >0x0D TIF> >0x21 TIF> >0x0D TIF> >0x28 TIF> >0x0D TIF> >0x21 TIF> >0x0D TIF> >0x21 TIF>Found Cortex-M4 r0p1, Little endian. -- CPU_WriteMem(4 bytes @ 0xE0002000) -- CPU_ReadMem(4 bytes @ 0xE000EDF0) -- CPU_ReadMem(4 bytes @ 0xE0002000)
FPUnit: 6 code (BP) slots and 2 literal slots -- CPU_ReadMem(4 bytes @ 0xE000EDFC) -- CPU_ReadMem(4 bytes @ 0xE0001000) -- CPU_WriteMem(4 bytes @ 0xE0001000) -- CPU_ReadMem(4 bytes @ 0xE00FF010)TPIU fitted. -- CPU_ReadMem(4 bytes @ 0xE00FF014)ETM fitted. -- CPU_ReadMem(4 bytes @ 0xE00FF018) -- CPU_ReadMem(4 bytes @ 0xE0042FE0) -- CPU_ReadMem(4 bytes @ 0xE0042FE4)ETB present. -- CPU_ReadMem(4 bytes @ 0xE00FF01C) -- CPU_ReadMem(4 bytes @ 0xE0043FE0) -- CPU_ReadMem(4 bytes @ 0xE0043FE4)CSTF present.
 -- CPU_ReadMem(4 bytes @ 0xE00FF020) -- CPU_ReadMem(2 bytes @ 0x40052000) >0x0D TIF> >0x21 TIF>  returns 0x2BA01477 (0065ms, 0655ms total)
T1C30 000:906 JLINK_GetDeviceFamily()  returns 14 (0000ms, 0655ms total)
T1C30 000:906 JLINK_ReadMem (0xE00FFFF0, 0x0010 Bytes, ...) -- CPU_ReadMem(16 bytes @ 0xE00FFFF0) -- Data:  0D 00 00 00 10 00 00 00 05 00 00 00 B1 00 00 00  returns 0x00 (0001ms, 0656ms total)
T1C30 000:907 JLINK_ReadMem (0xE00FFFD0, 0x0020 Bytes, ...) -- CPU_ReadMem(32 bytes @ 0xE00FFFD0) -- Data:  04 00 00 00 00 00 00 00 00 00 00 00 00 00 00 00 ...  returns 0x00 (0001ms, 0657ms total)
T1C30 000:908 JLINK_ReadMem (0xE00FF000, 0x0018 Bytes, ...) -- CPU_ReadMem(24 bytes @ 0xE00FF000) -- Data:  03 F0 F0 FF 03 20 F0 FF 03 30 F0 FF 03 10 F0 FF ...  returns 0x00 (0001ms, 0658ms total)
T1C30 000:909 JLINK_ReadMemU32(0xE000ED00, 0x0001 Items, ...) -- CPU_ReadMem(4 bytes @ 0xE000ED00) -- Data:  41 C2 0F 41  returns 0x01 (0001ms, 0659ms total)
T1C30 000:910 JLINK_ReadMemU32(0xE000EF40, 0x0001 Items, ...) -- CPU_ReadMem(4 bytes @ 0xE000EF40) -- Data:  21 00 11 10  returns 0x01 (0001ms, 0660ms total)
T1C30 000:911 JLINK_ReadMemU32(0xE000EF44, 0x0001 Items, ...) -- CPU_ReadMem(4 bytes @ 0xE000EF44) -- Data:  11 00 00 11  returns 0x01 (0001ms, 0661ms total)
T1C30 000:912 JLINK_SetResetType(JLINKARM_RESET_TYPE_NORMAL)  returns JLINKARM_RESET_TYPE_SOFT (0000ms, 0661ms total)
T1C30 000:912 JLINK_Reset() -- CPU_WriteMem(4 bytes @ 0xE000EDF0) -- CPU_WriteMem(4 bytes @ 0xE000EDFC) >0x35 TIF> -- CPU_WriteMem(4 bytes @ 0xE000ED0C) -- CPU_ReadMem(4 bytes @ 0xE000EDF0) -- CPU_ReadMem(4 bytes @ 0xE000EDF0) -- CPU_WriteMem(4 bytes @ 0xE000EDF0) -- CPU_WriteMem(4 bytes @ 0xE000EDFC) -- CPU is running -- CPU_ReadMem(4 bytes @ 0xE000EDF0) -- CPU_ReadMem(8 bytes @ 0x20000000) -- CPU_WriteMem(8 bytes @ 0x20000000) -- CPU_WriteMem(8 bytes @ 0x20000000) -- CPU_WriteMem(4 bytes @ 0xE0002000)
 -- CPU_ReadMem(4 bytes @ 0xE000EDFC) -- CPU_ReadMem(4 bytes @ 0xE0001000) (0031ms, 0692ms total)
T1C30 000:943 JLINK_ReadReg(R15 (PC))  returns 0x00000564 (0000ms, 0692ms total)
T1C30 000:943 JLINK_ReadReg(XPSR)  returns 0x01000000 (0000ms, 0692ms total)
T1C30 000:943 JLINK_Halt()  returns 0x00 (0000ms, 0692ms total)
T1C30 000:944 JLINK_IsHalted()  returns TRUE (0000ms, 0693ms total)
T1C30 000:944 JLINK_ReadMemU32(0xE000EDF0, 0x0001 Items, ...) -- CPU_ReadMem(4 bytes @ 0xE000EDF0) -- Data:  03 00 03 00  returns 0x01 (0001ms, 0694ms total)
T1C30 000:945 JLINK_WriteU32(0xE000EDF0, 0xA05F0003) -- CPU_WriteMem(4 bytes @ 0xE000EDF0)  returns 0x00 (0001ms, 0695ms total)
T1C30 000:946 JLINK_WriteU32(0xE000EDFC, 0x01000000) -- CPU_WriteMem(4 bytes @ 0xE000EDFC)  returns 0x00 (0001ms, 0696ms total)
T1C30 000:949 JLINK_GetHWStatus(...)  returns 0x00 (0001ms, 0697ms total)
T1C30 000:951 JLINK_GetNumBPUnits(Type = 0xFFFFFF00)  returns 0x06 (0000ms, 0697ms total)
T1C30 000:951 JLINK_GetNumBPUnits(Type = 0xF0)  returns 0x2000 (0000ms, 0697ms total)
T1C30 000:951 JLINK_GetNumWPUnits()  returns 0x04 (0000ms, 0697ms total)
T1C30 000:953 JLINK_GetSpeed()  returns 0x7D0 (0000ms, 0697ms total)
T1C30 000:954 JLINK_ReadMemU32(0xE000E004, 0x0001 Items, ...) -- CPU_ReadMem(4 bytes @ 0xE000E004) -- Data:  02 00 00 00  returns 0x01 (0001ms, 0698ms total)
T1C30 000:955 JLINK_ReadMemU32(0xE000E004, 0x0001 Items, ...) -- CPU_ReadMem(4 bytes @ 0xE000E004) -- Data:  02 00 00 00  returns 0x01 (0001ms, 0699ms total)
T1C30 000:956 JLINK_WriteMem(0xE0001000, 0x001C Bytes, ...) -- Data:  01 00 00 00 00 00 00 00 00 00 00 00 00 00 00 00 ... -- CPU_WriteMem(28 bytes @ 0xE0001000)  returns 0x1C (0001ms, 0700ms total)
T1C30 000:957 JLINK_ReadMem (0xE0001000, 0x001C Bytes, ...) -- CPU_ReadMem(28 bytes @ 0xE0001000) -- Data:  01 00 00 40 00 00 00 00 00 00 00 00 00 00 00 00 ...  returns 0x00 (0002ms, 0702ms total)
T1C30 000:959 JLINK_ReadReg(R15 (PC))  returns 0x00000564 (0000ms, 0702ms total)
T1C30 000:959 JLINK_ReadReg(XPSR)  returns 0x01000000 (0000ms, 0702ms total)
T1C30 001:061 JLINK_SetResetType(JLINKARM_RESET_TYPE_NORMAL)  returns JLINKARM_RESET_TYPE_SOFT (0001ms, 0703ms total)
T1C30 001:062 JLINK_Reset() -- CPU_WriteMem(4 bytes @ 0xE000EDF0) -- CPU_WriteMem(4 bytes @ 0xE000EDFC) >0x35 TIF> -- CPU_WriteMem(4 bytes @ 0xE000ED0C) -- CPU_ReadMem(4 bytes @ 0xE000EDF0) -- CPU_ReadMem(4 bytes @ 0xE000EDF0) -- CPU_WriteMem(4 bytes @ 0xE000EDF0) -- CPU_WriteMem(4 bytes @ 0xE000EDFC) -- CPU is running -- CPU_ReadMem(4 bytes @ 0xE000EDF0) -- CPU_ReadMem(8 bytes @ 0x20000000) -- CPU_WriteMem(8 bytes @ 0x20000000) -- CPU_WriteMem(8 bytes @ 0x20000000) -- CPU_WriteMem(4 bytes @ 0xE0002000)
 -- CPU_ReadMem(4 bytes @ 0xE000EDFC) -- CPU_ReadMem(4 bytes @ 0xE0001000) (0031ms, 0734ms total)
T1C30 001:093 JLINK_ReadReg(R15 (PC))  returns 0x00000564 (0001ms, 0735ms total)
T1C30 001:094 JLINK_ReadReg(XPSR)  returns 0x01000000 (0000ms, 0735ms total)
T1C30 001:095 JLINK_ReadMem (0x00000564, 0x003C Bytes, ...) -- CPU_ReadMem(128 bytes @ 0x00000540) -- Updating C cache (128 bytes @ 0x00000540) -- Read from C cache (60 bytes @ 0x00000564) -- Data:  01 48 80 47 01 48 00 47 45 0A 00 00 11 04 00 00 ...  returns 0x00 (0002ms, 0737ms total)
T1C30 002:078 JLINK_ReadMemU32(0xE0001004, 0x0001 Items, ...) -- CPU_ReadMem(4 bytes @ 0xE0001004) -- Data:  4A 04 00 00  returns 0x01 (0001ms, 0738ms total)
T1780 005:494 JLINK_Step() -- Read from C cache (2 bytes @ 0x00000564) -- Read from C cache (4 bytes @ 0x0000056C) -- Simulated  returns 0x00 (0002ms, 0740ms total)
T1780 005:496 JLINK_ReadReg(R15 (PC))  returns 0x00000566 (0000ms, 0740ms total)
T1780 005:496 JLINK_ReadReg(XPSR)  returns 0x01000000 (0000ms, 0740ms total)
T1780 005:496 JLINK_ReadReg(R0)  returns 0x00000A45 (0001ms, 0741ms total)
T1780 005:497 JLINK_ReadReg(R1)  returns 0x00000000 (0000ms, 0741ms total)
T1780 005:497 JLINK_ReadReg(R2)  returns 0x00000000 (0000ms, 0741ms total)
T1780 005:497 JLINK_ReadReg(R3)  returns 0x00000000 (0000ms, 0741ms total)
T1780 005:497 JLINK_ReadReg(R4)  returns 0x00000000 (0000ms, 0741ms total)
T1780 005:497 JLINK_ReadReg(R5)  returns 0x00000000 (0000ms, 0741ms total)
T1780 005:497 JLINK_ReadReg(R6)  returns 0x00000000 (0000ms, 0741ms total)
T1780 005:497 JLINK_ReadReg(R7)  returns 0x00000000 (0000ms, 0741ms total)
T1780 005:497 JLINK_ReadReg(R8)  returns 0x00000000 (0000ms, 0741ms total)
T1780 005:498 JLINK_ReadReg(R9)  returns 0x00000000 (0000ms, 0742ms total)
T1780 005:498 JLINK_ReadReg(R10)  returns 0x00000000 (0000ms, 0742ms total)
T1780 005:498 JLINK_ReadReg(R11)  returns 0x00000000 (0000ms, 0742ms total)
T1780 005:498 JLINK_ReadReg(R12)  returns 0x00000000 (0000ms, 0742ms total)
T1780 005:498 JLINK_ReadReg(R13 (SP))  returns 0x20030000 (0000ms, 0742ms total)
T1780 005:498 JLINK_ReadReg(R14)  returns 0xFFFFFFFF (0000ms, 0742ms total)
T1780 005:498 JLINK_ReadReg(R15 (PC))  returns 0x00000566 (0000ms, 0742ms total)
T1780 005:498 JLINK_ReadReg(XPSR)  returns 0x01000000 (0000ms, 0742ms total)
T1780 005:498 JLINK_ReadReg(MSP)  returns 0x20030000 (0001ms, 0743ms total)
T1780 005:499 JLINK_ReadReg(PSP)  returns 0x00000000 (0000ms, 0743ms total)
T1780 005:499 JLINK_ReadReg(CFBP)  returns 0x00000000 (0000ms, 0743ms total)
T1780 005:499 JLINK_ReadReg(FPSCR)  returns 0x00000000 (0006ms, 0749ms total)
T1780 005:505 JLINK_ReadReg(FPS0)  returns 0x00000000 (0000ms, 0749ms total)
T1780 005:505 JLINK_ReadReg(FPS1)  returns 0x00000000 (0000ms, 0749ms total)
T1780 005:505 JLINK_ReadReg(FPS2)  returns 0x00000000 (0000ms, 0749ms total)
T1780 005:505 JLINK_ReadReg(FPS3)  returns 0x00000000 (0000ms, 0749ms total)
T1780 005:505 JLINK_ReadReg(FPS4)  returns 0x00000000 (0000ms, 0749ms total)
T1780 005:505 JLINK_ReadReg(FPS5)  returns 0x00000000 (0000ms, 0749ms total)
T1780 005:505 JLINK_ReadReg(FPS6)  returns 0x00000000 (0001ms, 0750ms total)
T1780 005:506 JLINK_ReadReg(FPS7)  returns 0x00000000 (0000ms, 0750ms total)
T1780 005:506 JLINK_ReadReg(FPS8)  returns 0x00000000 (0000ms, 0750ms total)
T1780 005:506 JLINK_ReadReg(FPS9)  returns 0x00000000 (0000ms, 0750ms total)
T1780 005:506 JLINK_ReadReg(FPS10)  returns 0x00000000 (0000ms, 0750ms total)
T1780 005:506 JLINK_ReadReg(FPS11)  returns 0x00000000 (0000ms, 0750ms total)
T1780 005:506 JLINK_ReadReg(FPS12)  returns 0x00000000 (0000ms, 0750ms total)
T1780 005:506 JLINK_ReadReg(FPS13)  returns 0x00000000 (0000ms, 0750ms total)
T1780 005:506 JLINK_ReadReg(FPS14)  returns 0x00000000 (0000ms, 0750ms total)
T1780 005:506 JLINK_ReadReg(FPS15)  returns 0x00000000 (0000ms, 0750ms total)
T1780 005:506 JLINK_ReadReg(FPS16)  returns 0x00000000 (0000ms, 0750ms total)
T1780 005:506 JLINK_ReadReg(FPS17)  returns 0x00000000 (0000ms, 0750ms total)
T1780 005:506 JLINK_ReadReg(FPS18)  returns 0x00000000 (0000ms, 0750ms total)
T1780 005:506 JLINK_ReadReg(FPS19)  returns 0x00000000 (0001ms, 0751ms total)
T1780 005:507 JLINK_ReadReg(FPS20)  returns 0x00000000 (0000ms, 0751ms total)
T1780 005:507 JLINK_ReadReg(FPS31)  returns 0x00000000 (0000ms, 0751ms total)
T1780 005:507 JLINK_ReadReg(FPS7)  returns 0x00000000 (0000ms, 0751ms total)
T1780 005:507 JLINK_ReadReg(FPS8)  returns 0x00000000 (0000ms, 0751ms total)
T1780 005:507 JLINK_ReadReg(FPS9)  returns 0x00000000 (0000ms, 0751ms total)
T1780 005:507 JLINK_ReadReg(FPS10)  returns 0x00000000 (0000ms, 0751ms total)
T1780 005:507 JLINK_ReadReg(FPS11)  returns 0x00000000 (0000ms, 0751ms total)
T1780 005:507 JLINK_ReadReg(FPS12)  returns 0x00000000 (0000ms, 0751ms total)
T1780 005:507 JLINK_ReadReg(FPS13)  returns 0x00000000 (0000ms, 0751ms total)
T1780 005:507 JLINK_ReadReg(FPS14)  returns 0x00000000 (0000ms, 0751ms total)
T1780 005:507 JLINK_ReadReg(FPS15)  returns 0x00000000 (0000ms, 0751ms total)
T1780 005:507 JLINK_ReadReg(FPS16)  returns 0x00000000 (0000ms, 0751ms total)
T1C30 005:519 JLINK_ReadMemU32(0xE0001004, 0x0001 Items, ...) -- Data:  4A 04 00 00  returns 0x01 (0000ms, 0751ms total)
T1780 006:573 JLINK_ReadMem (0x00000566, 0x0002 Bytes, ...) -- Read from C cache (2 bytes @ 0x00000566) -- Data:  80 47  returns 0x00 (0001ms, 0752ms total)
T1780 006:574 JLINK_ReadMem (0x00000568, 0x003C Bytes, ...) -- Read from C cache (60 bytes @ 0x00000568) -- Data:  01 48 00 47 45 0A 00 00 11 04 00 00 00 20 00 BF ...  returns 0x00 (0001ms, 0753ms total)
T1780 006:575 JLINK_Step() -- Read from C cache (2 bytes @ 0x00000566) -- Simulated  returns 0x00 (0001ms, 0754ms total)
T1780 006:576 JLINK_ReadReg(R15 (PC))  returns 0x00000A44 (0000ms, 0754ms total)
T1780 006:576 JLINK_ReadReg(XPSR)  returns 0x01000000 (0000ms, 0754ms total)
T1780 006:578 JLINK_ReadReg(R0)  returns 0x00000A45 (0000ms, 0754ms total)
T1780 006:578 JLINK_ReadReg(R1)  returns 0x00000000 (0000ms, 0754ms total)
T1780 006:578 JLINK_ReadReg(R2)  returns 0x00000000 (0000ms, 0754ms total)
T1780 006:578 JLINK_ReadReg(R3)  returns 0x00000000 (0000ms, 0754ms total)
T1780 006:578 JLINK_ReadReg(R4)  returns 0x00000000 (0001ms, 0755ms total)
T1780 006:579 JLINK_ReadReg(R5)  returns 0x00000000 (0000ms, 0755ms total)
T1780 006:579 JLINK_ReadReg(R6)  returns 0x00000000 (0000ms, 0755ms total)
T1780 006:579 JLINK_ReadReg(R7)  returns 0x00000000 (0000ms, 0755ms total)
T1780 006:579 JLINK_ReadReg(R8)  returns 0x00000000 (0000ms, 0755ms total)
T1780 006:579 JLINK_ReadReg(R9)  returns 0x00000000 (0000ms, 0755ms total)
T1780 006:579 JLINK_ReadReg(R10)  returns 0x00000000 (0000ms, 0755ms total)
T1780 006:579 JLINK_ReadReg(R11)  returns 0x00000000 (0000ms, 0755ms total)
T1780 006:579 JLINK_ReadReg(R12)  returns 0x00000000 (0000ms, 0755ms total)
T1780 006:579 JLINK_ReadReg(R13 (SP))  returns 0x20030000 (0001ms, 0756ms total)
T1780 006:580 JLINK_ReadReg(R14)  returns 0x00000569 (0000ms, 0756ms total)
T1780 006:580 JLINK_ReadReg(R15 (PC))  returns 0x00000A44 (0000ms, 0756ms total)
T1780 006:580 JLINK_ReadReg(XPSR)  returns 0x01000000 (0000ms, 0756ms total)
T1780 006:580 JLINK_ReadReg(MSP)  returns 0x20030000 (0000ms, 0756ms total)
T1780 006:580 JLINK_ReadReg(PSP)  returns 0x00000000 (0000ms, 0756ms total)
T1780 006:580 JLINK_ReadReg(CFBP)  returns 0x00000000 (0000ms, 0756ms total)
T1780 006:580 JLINK_ReadReg(FPSCR)  returns 0x00000000 (0000ms, 0756ms total)
T1780 006:580 JLINK_ReadReg(FPS0)  returns 0x00000000 (0001ms, 0757ms total)
T1780 006:581 JLINK_ReadReg(FPS1)  returns 0x00000000 (0000ms, 0757ms total)
T1780 006:581 JLINK_ReadReg(FPS2)  returns 0x00000000 (0000ms, 0757ms total)
T1780 006:581 JLINK_ReadReg(FPS3)  returns 0x00000000 (0000ms, 0757ms total)
T1780 006:581 JLINK_ReadReg(FPS4)  returns 0x00000000 (0000ms, 0757ms total)
T1780 006:581 JLINK_ReadReg(FPS5)  returns 0x00000000 (0000ms, 0757ms total)
T1780 006:581 JLINK_ReadReg(FPS6)  returns 0x00000000 (0000ms, 0757ms total)
T1780 006:581 JLINK_ReadReg(FPS7)  returns 0x00000000 (0000ms, 0757ms total)
T1780 006:581 JLINK_ReadReg(FPS8)  returns 0x00000000 (0000ms, 0757ms total)
T1780 006:581 JLINK_ReadReg(FPS9)  returns 0x00000000 (0001ms, 0758ms total)
T1780 006:582 JLINK_ReadReg(FPS10)  returns 0x00000000 (0000ms, 0758ms total)
T1780 006:582 JLINK_ReadReg(FPS11)  returns 0x00000000 (0000ms, 0758ms total)
T1780 006:582 JLINK_ReadReg(FPS12)  returns 0x00000000 (0000ms, 0758ms total)
T1780 006:582 JLINK_ReadReg(FPS13)  returns 0x00000000 (0000ms, 0758ms total)
T1780 006:582 JLINK_ReadReg(FPS14)  returns 0x00000000 (0000ms, 0758ms total)
T1780 006:582 JLINK_ReadReg(FPS15)  returns 0x00000000 (0000ms, 0758ms total)
T1780 006:582 JLINK_ReadReg(FPS16)  returns 0x00000000 (0000ms, 0758ms total)
T1780 006:582 JLINK_ReadReg(FPS17)  returns 0x00000000 (0000ms, 0758ms total)
T1780 006:582 JLINK_ReadReg(FPS18)  returns 0x00000000 (0001ms, 0759ms total)
T1780 006:583 JLINK_ReadReg(FPS19)  returns 0x00000000 (0000ms, 0759ms total)
T1780 006:583 JLINK_ReadReg(FPS20)  returns 0x00000000 (0000ms, 0759ms total)
T1780 006:583 JLINK_ReadReg(FPS31)  returns 0x00000000 (0000ms, 0759ms total)
T1780 006:583 JLINK_ReadReg(FPS7)  returns 0x00000000 (0000ms, 0759ms total)
T1780 006:583 JLINK_ReadReg(FPS8)  returns 0x00000000 (0000ms, 0759ms total)
T1780 006:583 JLINK_ReadReg(FPS9)  returns 0x00000000 (0000ms, 0759ms total)
T1780 006:583 JLINK_ReadReg(FPS10)  returns 0x00000000 (0000ms, 0759ms total)
T1780 006:583 JLINK_ReadReg(FPS11)  returns 0x00000000 (0000ms, 0759ms total)
T1780 006:583 JLINK_ReadReg(FPS12)  returns 0x00000000 (0000ms, 0759ms total)
T1780 006:583 JLINK_ReadReg(FPS13)  returns 0x00000000 (0001ms, 0760ms total)
T1780 006:584 JLINK_ReadReg(FPS14)  returns 0x00000000 (0000ms, 0760ms total)
T1780 006:584 JLINK_ReadReg(FPS15)  returns 0x00000000 (0000ms, 0760ms total)
T1780 006:584 JLINK_ReadReg(FPS16)  returns 0x00000000 (0000ms, 0760ms total)
T1C30 006:599 JLINK_ReadMemU32(0xE0001004, 0x0001 Items, ...) -- Data:  4A 04 00 00  returns 0x01 (0000ms, 0760ms total)
T1C30 006:703 JLINK_ReadMem (0x00000566, 0x0002 Bytes, ...) -- Read from C cache (2 bytes @ 0x00000566) -- Data:  80 47  returns 0x00 (0000ms, 0760ms total)
T1C30 006:703 JLINK_ReadMem (0x00000568, 0x003C Bytes, ...) -- Read from C cache (60 bytes @ 0x00000568) -- Data:  01 48 00 47 45 0A 00 00 11 04 00 00 00 20 00 BF ...  returns 0x00 (0000ms, 0760ms total)
T1780 009:347 JLINK_ReadMem (0x00000A44, 0x003C Bytes, ...) -- CPU_ReadMem(64 bytes @ 0x00000A40) -- Updating C cache (64 bytes @ 0x00000A40) -- Read from C cache (60 bytes @ 0x00000A44) -- Data:  00 B5 24 48 24 49 08 60 4C F2 20 50 23 49 C8 81 ...  returns 0x00 (0003ms, 0763ms total)
T1780 009:350 JLINK_Step() -- Read from C cache (2 bytes @ 0x00000A44) -- Not simulated -- CPU_WriteMem(4 bytes @ 0xE0001004)  returns 0x00 (0009ms, 0772ms total)
T1780 009:359 JLINK_ReadReg(R15 (PC))  returns 0x00000A46 (0000ms, 0772ms total)
T1780 009:359 JLINK_ReadReg(XPSR)  returns 0x01000000 (0000ms, 0772ms total)
T1780 009:359 JLINK_ReadReg(R0)  returns 0x00000A45 (0000ms, 0772ms total)
T1780 009:359 JLINK_ReadReg(R1)  returns 0x00000000 (0001ms, 0773ms total)
T1780 009:360 JLINK_ReadReg(R2)  returns 0x00000000 (0000ms, 0773ms total)
T1780 009:360 JLINK_ReadReg(R3)  returns 0x00000000 (0000ms, 0773ms total)
T1780 009:360 JLINK_ReadReg(R4)  returns 0x00000000 (0000ms, 0773ms total)
T1780 009:360 JLINK_ReadReg(R5)  returns 0x00000000 (0000ms, 0773ms total)
T1780 009:360 JLINK_ReadReg(R6)  returns 0x00000000 (0000ms, 0773ms total)
T1780 009:360 JLINK_ReadReg(R7)  returns 0x00000000 (0000ms, 0773ms total)
T1780 009:360 JLINK_ReadReg(R8)  returns 0x00000000 (0000ms, 0773ms total)
T1780 009:360 JLINK_ReadReg(R9)  returns 0x00000000 (0000ms, 0773ms total)
T1780 009:361 JLINK_ReadReg(R10)  returns 0x00000000 (0000ms, 0773ms total)
T1780 009:361 JLINK_ReadReg(R11)  returns 0x00000000 (0000ms, 0773ms total)
T1780 009:361 JLINK_ReadReg(R12)  returns 0x00000000 (0000ms, 0773ms total)
T1780 009:361 JLINK_ReadReg(R13 (SP))  returns 0x2002FFFC (0000ms, 0773ms total)
T1780 009:361 JLINK_ReadReg(R14)  returns 0x00000569 (0000ms, 0773ms total)
T1780 009:361 JLINK_ReadReg(R15 (PC))  returns 0x00000A46 (0000ms, 0773ms total)
T1780 009:361 JLINK_ReadReg(XPSR)  returns 0x01000000 (0000ms, 0773ms total)
T1780 009:361 JLINK_ReadReg(MSP)  returns 0x2002FFFC (0000ms, 0773ms total)
T1780 009:361 JLINK_ReadReg(PSP)  returns 0x00000000 (0001ms, 0774ms total)
T1780 009:362 JLINK_ReadReg(CFBP)  returns 0x00000000 (0000ms, 0774ms total)
T1780 009:362 JLINK_ReadReg(FPSCR)  returns 0x00000000 (0006ms, 0780ms total)
T1780 009:368 JLINK_ReadReg(FPS0)  returns 0x00000000 (0000ms, 0780ms total)
T1780 009:368 JLINK_ReadReg(FPS1)  returns 0x00000000 (0000ms, 0780ms total)
T1780 009:368 JLINK_ReadReg(FPS2)  returns 0x00000000 (0000ms, 0780ms total)
T1780 009:368 JLINK_ReadReg(FPS3)  returns 0x00000000 (0000ms, 0780ms total)
T1780 009:369 JLINK_ReadReg(FPS4)  returns 0x00000000 (0000ms, 0781ms total)
T1780 009:369 JLINK_ReadReg(FPS5)  returns 0x00000000 (0000ms, 0781ms total)
T1780 009:369 JLINK_ReadReg(FPS6)  returns 0x00000000 (0000ms, 0781ms total)
T1780 009:369 JLINK_ReadReg(FPS7)  returns 0x00000000 (0000ms, 0781ms total)
T1780 009:369 JLINK_ReadReg(FPS8)  returns 0x00000000 (0000ms, 0781ms total)
T1780 009:369 JLINK_ReadReg(FPS9)  returns 0x00000000 (0000ms, 0781ms total)
T1780 009:369 JLINK_ReadReg(FPS10)  returns 0x00000000 (0000ms, 0781ms total)
T1780 009:369 JLINK_ReadReg(FPS11)  returns 0x00000000 (0000ms, 0781ms total)
T1780 009:369 JLINK_ReadReg(FPS12)  returns 0x00000000 (0001ms, 0782ms total)
T1780 009:370 JLINK_ReadReg(FPS13)  returns 0x00000000 (0000ms, 0782ms total)
T1780 009:370 JLINK_ReadReg(FPS14)  returns 0x00000000 (0000ms, 0782ms total)
T1780 009:370 JLINK_ReadReg(FPS15)  returns 0x00000000 (0000ms, 0782ms total)
T1780 009:370 JLINK_ReadReg(FPS16)  returns 0x00000000 (0000ms, 0782ms total)
T1780 009:370 JLINK_ReadReg(FPS17)  returns 0x00000000 (0000ms, 0782ms total)
T1780 009:370 JLINK_ReadReg(FPS18)  returns 0x00000000 (0000ms, 0782ms total)
T1780 009:370 JLINK_ReadReg(FPS19)  returns 0x00000000 (0000ms, 0782ms total)
T1780 009:370 JLINK_ReadReg(FPS20)  returns 0x00000000 (0000ms, 0782ms total)
T1780 009:370 JLINK_ReadReg(FPS31)  returns 0x00000000 (0000ms, 0782ms total)
T1780 009:370 JLINK_ReadReg(FPS7)  returns 0x00000000 (0000ms, 0782ms total)
T1780 009:370 JLINK_ReadReg(FPS8)  returns 0x00000000 (0000ms, 0782ms total)
T1780 009:370 JLINK_ReadReg(FPS9)  returns 0x00000000 (0000ms, 0782ms total)
T1780 009:370 JLINK_ReadReg(FPS10)  returns 0x00000000 (0000ms, 0782ms total)
T1780 009:370 JLINK_ReadReg(FPS11)  returns 0x00000000 (0000ms, 0782ms total)
T1780 009:370 JLINK_ReadReg(FPS12)  returns 0x00000000 (0001ms, 0783ms total)
T1780 009:371 JLINK_ReadReg(FPS13)  returns 0x00000000 (0000ms, 0783ms total)
T1780 009:371 JLINK_ReadReg(FPS14)  returns 0x00000000 (0000ms, 0783ms total)
T1780 009:371 JLINK_ReadReg(FPS15)  returns 0x00000000 (0000ms, 0783ms total)
T1780 009:371 JLINK_ReadReg(FPS16)  returns 0x00000000 (0000ms, 0783ms total)
T1C30 009:372 JLINK_ReadMem (0x2002FFFC, 0x0004 Bytes, ...) -- CPU_ReadMem(4 bytes @ 0x2002FFFC) -- Data:  69 05 00 00  returns 0x00 (0000ms, 0783ms total)
T1C30 009:373 JLINK_ReadMemU32(0xE0001004, 0x0001 Items, ...) -- CPU_ReadMem(4 bytes @ 0xE0001004) -- Data:  05 00 00 00  returns 0x01 (0001ms, 0784ms total)
T1780 010:712 JLINK_ReadMem (0x00000A46, 0x0002 Bytes, ...) -- CPU_ReadMem(64 bytes @ 0x00000A40) -- Updating C cache (64 bytes @ 0x00000A40) -- Read from C cache (2 bytes @ 0x00000A46) -- Data:  24 48  returns 0x00 (0002ms, 0786ms total)
T1780 010:714 JLINK_ReadMem (0x00000A48, 0x003C Bytes, ...) -- CPU_ReadMem(64 bytes @ 0x00000A80) -- Updating C cache (64 bytes @ 0x00000A80) -- Read from C cache (60 bytes @ 0x00000A48) -- Data:  24 49 08 60 4C F2 20 50 23 49 C8 81 4D F6 28 10 ...  returns 0x00 (0002ms, 0788ms total)
T1780 010:716 JLINK_Step() -- Read from C cache (2 bytes @ 0x00000A46) -- CPU_ReadMem(64 bytes @ 0x00000AC0) -- Updating C cache (64 bytes @ 0x00000AC0) -- Read from C cache (4 bytes @ 0x00000AD8) -- Simulated  returns 0x00 (0003ms, 0791ms total)
T1780 010:719 JLINK_ReadReg(R15 (PC))  returns 0x00000A48 (0000ms, 0791ms total)
T1780 010:719 JLINK_ReadReg(XPSR)  returns 0x01000000 (0000ms, 0791ms total)
T1780 010:719 JLINK_Step() -- Read from C cache (2 bytes @ 0x00000A48) -- Read from C cache (4 bytes @ 0x00000ADC) -- Simulated  returns 0x00 (0000ms, 0791ms total)
T1780 010:719 JLINK_ReadReg(R15 (PC))  returns 0x00000A4A (0001ms, 0792ms total)
T1780 010:720 JLINK_ReadReg(XPSR)  returns 0x01000000 (0000ms, 0792ms total)
T1780 010:720 JLINK_Step() -- Read from C cache (2 bytes @ 0x00000A4A) -- Not simulated -- CPU_WriteMem(4 bytes @ 0xE0001004)  returns 0x00 (0007ms, 0799ms total)
T1780 010:727 JLINK_ReadReg(R15 (PC))  returns 0x00000A4C (0000ms, 0799ms total)
T1780 010:727 JLINK_ReadReg(XPSR)  returns 0x01000000 (0001ms, 0800ms total)
T1780 010:728 JLINK_ReadReg(R0)  returns 0x00000000 (0000ms, 0800ms total)
T1780 010:728 JLINK_ReadReg(R1)  returns 0xE000ED08 (0000ms, 0800ms total)
T1780 010:728 JLINK_ReadReg(R2)  returns 0x00000000 (0000ms, 0800ms total)
T1780 010:728 JLINK_ReadReg(R3)  returns 0x00000000 (0000ms, 0800ms total)
T1780 010:728 JLINK_ReadReg(R4)  returns 0x00000000 (0000ms, 0800ms total)
T1780 010:728 JLINK_ReadReg(R5)  returns 0x00000000 (0000ms, 0800ms total)
T1780 010:728 JLINK_ReadReg(R6)  returns 0x00000000 (0001ms, 0801ms total)
T1780 010:729 JLINK_ReadReg(R7)  returns 0x00000000 (0000ms, 0801ms total)
T1780 010:729 JLINK_ReadReg(R8)  returns 0x00000000 (0000ms, 0801ms total)
T1780 010:729 JLINK_ReadReg(R9)  returns 0x00000000 (0000ms, 0801ms total)
T1780 010:729 JLINK_ReadReg(R10)  returns 0x00000000 (0000ms, 0801ms total)
T1780 010:729 JLINK_ReadReg(R11)  returns 0x00000000 (0000ms, 0801ms total)
T1780 010:729 JLINK_ReadReg(R12)  returns 0x00000000 (0000ms, 0801ms total)
T1780 010:729 JLINK_ReadReg(R13 (SP))  returns 0x2002FFFC (0000ms, 0801ms total)
T1780 010:729 JLINK_ReadReg(R14)  returns 0x00000569 (0000ms, 0801ms total)
T1780 010:730 JLINK_ReadReg(R15 (PC))  returns 0x00000A4C (0000ms, 0802ms total)
T1780 010:730 JLINK_ReadReg(XPSR)  returns 0x01000000 (0000ms, 0802ms total)
T1780 010:730 JLINK_ReadReg(MSP)  returns 0x2002FFFC (0000ms, 0802ms total)
T1780 010:730 JLINK_ReadReg(PSP)  returns 0x00000000 (0000ms, 0802ms total)
T1780 010:730 JLINK_ReadReg(CFBP)  returns 0x00000000 (0000ms, 0802ms total)
T1780 010:730 JLINK_ReadReg(FPSCR)  returns 0x00000000 (0006ms, 0808ms total)
T1780 010:736 JLINK_ReadReg(FPS0)  returns 0x00000000 (0000ms, 0808ms total)
T1780 010:736 JLINK_ReadReg(FPS1)  returns 0x00000000 (0000ms, 0808ms total)
T1780 010:736 JLINK_ReadReg(FPS2)  returns 0x00000000 (0000ms, 0808ms total)
T1780 010:736 JLINK_ReadReg(FPS3)  returns 0x00000000 (0001ms, 0809ms total)
T1780 010:737 JLINK_ReadReg(FPS4)  returns 0x00000000 (0000ms, 0809ms total)
T1780 010:737 JLINK_ReadReg(FPS5)  returns 0x00000000 (0000ms, 0809ms total)
T1780 010:737 JLINK_ReadReg(FPS6)  returns 0x00000000 (0000ms, 0809ms total)
T1780 010:737 JLINK_ReadReg(FPS7)  returns 0x00000000 (0000ms, 0809ms total)
T1780 010:737 JLINK_ReadReg(FPS8)  returns 0x00000000 (0000ms, 0809ms total)
T1780 010:737 JLINK_ReadReg(FPS9)  returns 0x00000000 (0000ms, 0809ms total)
T1780 010:737 JLINK_ReadReg(FPS10)  returns 0x00000000 (0000ms, 0809ms total)
T1780 010:737 JLINK_ReadReg(FPS11)  returns 0x00000000 (0000ms, 0809ms total)
T1780 010:738 JLINK_ReadReg(FPS12)  returns 0x00000000 (0000ms, 0810ms total)
T1780 010:738 JLINK_ReadReg(FPS13)  returns 0x00000000 (0000ms, 0810ms total)
T1780 010:738 JLINK_ReadReg(FPS14)  returns 0x00000000 (0000ms, 0810ms total)
T1780 010:738 JLINK_ReadReg(FPS15)  returns 0x00000000 (0000ms, 0810ms total)
T1780 010:738 JLINK_ReadReg(FPS16)  returns 0x00000000 (0000ms, 0810ms total)
T1780 010:738 JLINK_ReadReg(FPS17)  returns 0x00000000 (0000ms, 0810ms total)
T1780 010:738 JLINK_ReadReg(FPS18)  returns 0x00000000 (0000ms, 0810ms total)
T1780 010:739 JLINK_ReadReg(FPS19)  returns 0x00000000 (0000ms, 0811ms total)
T1780 010:739 JLINK_ReadReg(FPS20)  returns 0x00000000 (0000ms, 0811ms total)
T1780 010:739 JLINK_ReadReg(FPS31)  returns 0x00000000 (0000ms, 0811ms total)
T1780 010:739 JLINK_ReadReg(FPS7)  returns 0x00000000 (0000ms, 0811ms total)
T1780 010:739 JLINK_ReadReg(FPS8)  returns 0x00000000 (0000ms, 0811ms total)
T1780 010:739 JLINK_ReadReg(FPS9)  returns 0x00000000 (0000ms, 0811ms total)
T1780 010:739 JLINK_ReadReg(FPS10)  returns 0x00000000 (0000ms, 0811ms total)
T1780 010:739 JLINK_ReadReg(FPS11)  returns 0x00000000 (0000ms, 0811ms total)
T1780 010:739 JLINK_ReadReg(FPS12)  returns 0x00000000 (0001ms, 0812ms total)
T1780 010:740 JLINK_ReadReg(FPS13)  returns 0x00000000 (0000ms, 0812ms total)
T1780 010:740 JLINK_ReadReg(FPS14)  returns 0x00000000 (0000ms, 0812ms total)
T1780 010:740 JLINK_ReadReg(FPS15)  returns 0x00000000 (0000ms, 0812ms total)
T1780 010:740 JLINK_ReadReg(FPS16)  returns 0x00000000 (0000ms, 0812ms total)
T1C30 010:740 JLINK_ReadMem (0x2002FFFC, 0x0004 Bytes, ...) -- CPU_ReadMem(4 bytes @ 0x2002FFFC) -- Data:  69 05 00 00  returns 0x00 (0002ms, 0814ms total)
T1C30 010:742 JLINK_ReadMemU32(0xE0001004, 0x0001 Items, ...) -- CPU_ReadMem(4 bytes @ 0xE0001004) -- Data:  0B 00 00 00  returns 0x01 (0002ms, 0816ms total)
T1C30 010:746 JLINK_ReadMem (0x00000A4C, 0x003C Bytes, ...) -- CPU_ReadMem(128 bytes @ 0x00000A40) -- Updating C cache (128 bytes @ 0x00000A40) -- Read from C cache (60 bytes @ 0x00000A4C) -- Data:  4C F2 20 50 23 49 C8 81 4D F6 28 10 C8 81 4F F4 ...  returns 0x00 (0003ms, 0819ms total)
T1780 011:619 JLINK_Step() -- Read from C cache (2 bytes @ 0x00000A4C) -- Read from C cache (2 bytes @ 0x00000A4E) -- Not simulated  returns 0x00 (0006ms, 0825ms total)
T1780 011:625 JLINK_ReadReg(R15 (PC))  returns 0x00000A50 (0000ms, 0825ms total)
T1780 011:625 JLINK_ReadReg(XPSR)  returns 0x01000000 (0000ms, 0825ms total)
T1780 011:625 JLINK_Step() -- CPU_ReadMem(64 bytes @ 0x00000A40) -- Updating C cache (64 bytes @ 0x00000A40) -- Read from C cache (2 bytes @ 0x00000A50) -- CPU_ReadMem(4 bytes @ 0xE0001004) -- CPU_ReadMem(64 bytes @ 0x00000AC0) -- Updating C cache (64 bytes @ 0x00000AC0) -- Read from C cache (4 bytes @ 0x00000AE0) -- Simulated  returns 0x00 (0005ms, 0830ms total)
T1780 011:630 JLINK_ReadReg(R15 (PC))  returns 0x00000A52 (0000ms, 0830ms total)
T1780 011:630 JLINK_ReadReg(XPSR)  returns 0x01000000 (0000ms, 0830ms total)
T1780 011:630 JLINK_Step() -- Read from C cache (2 bytes @ 0x00000A52) -- Not simulated -- CPU_WriteMem(4 bytes @ 0xE0001004)  returns 0x00 (0007ms, 0837ms total)
T1780 011:638 JLINK_ReadReg(R15 (PC))  returns 0x00000566 (0000ms, 0837ms total)
T1780 011:638 JLINK_ReadReg(XPSR)  returns 0x01000000 (0000ms, 0837ms total)
T1780 011:638 JLINK_ReadReg(R0)  returns 0x00000A45 (0000ms, 0837ms total)
T1780 011:638 JLINK_ReadReg(R1)  returns 0x00000000 (0000ms, 0837ms total)
T1780 011:638 JLINK_ReadReg(R2)  returns 0x00000000 (0000ms, 0837ms total)
T1780 011:638 JLINK_ReadReg(R3)  returns 0x00000000 (0000ms, 0837ms total)
T1780 011:638 JLINK_ReadReg(R4)  returns 0x00000000 (0000ms, 0837ms total)
T1780 011:639 JLINK_ReadReg(R5)  returns 0x00000000 (0000ms, 0838ms total)
T1780 011:639 JLINK_ReadReg(R6)  returns 0x00000000 (0000ms, 0838ms total)
T1780 011:639 JLINK_ReadReg(R7)  returns 0x00000000 (0000ms, 0838ms total)
T1780 011:639 JLINK_ReadReg(R8)  returns 0x00000000 (0000ms, 0838ms total)
T1780 011:639 JLINK_ReadReg(R9)  returns 0x00000000 (0000ms, 0838ms total)
T1780 011:639 JLINK_ReadReg(R10)  returns 0x00000000 (0000ms, 0838ms total)
T1780 011:639 JLINK_ReadReg(R11)  returns 0x00000000 (0000ms, 0838ms total)
T1780 011:639 JLINK_ReadReg(R12)  returns 0x00000000 (0000ms, 0838ms total)
T1780 011:639 JLINK_ReadReg(R13 (SP))  returns 0x20030000 (0001ms, 0839ms total)
T1780 011:640 JLINK_ReadReg(R14)  returns 0xFFFFFFFF (0000ms, 0839ms total)
T1780 011:640 JLINK_ReadReg(R15 (PC))  returns 0x00000566 (0000ms, 0839ms total)
T1780 011:640 JLINK_ReadReg(XPSR)  returns 0x01000000 (0000ms, 0839ms total)
T1780 011:640 JLINK_ReadReg(MSP)  returns 0x20030000 (0000ms, 0839ms total)
T1780 011:640 JLINK_ReadReg(PSP)  returns 0x00000000 (0000ms, 0839ms total)
T1780 011:640 JLINK_ReadReg(CFBP)  returns 0x00000000 (0000ms, 0839ms total)
T1780 011:640 JLINK_ReadReg(FPSCR)  returns 0x00000000 (0006ms, 0845ms total)
T1780 011:646 JLINK_ReadReg(FPS0)  returns 0x00000000 (0000ms, 0845ms total)
T1780 011:646 JLINK_ReadReg(FPS1)  returns 0x00000000 (0000ms, 0845ms total)
T1780 011:646 JLINK_ReadReg(FPS2)  returns 0x00000000 (0001ms, 0846ms total)
T1780 011:647 JLINK_ReadReg(FPS3)  returns 0x00000000 (0000ms, 0846ms total)
T1780 011:647 JLINK_ReadReg(FPS4)  returns 0x00000000 (0000ms, 0846ms total)
T1780 011:647 JLINK_ReadReg(FPS5)  returns 0x00000000 (0000ms, 0846ms total)
T1780 011:647 JLINK_ReadReg(FPS6)  returns 0x00000000 (0000ms, 0846ms total)
T1780 011:647 JLINK_ReadReg(FPS7)  returns 0x00000000 (0000ms, 0846ms total)
T1780 011:647 JLINK_ReadReg(FPS8)  returns 0x00000000 (0000ms, 0846ms total)
T1780 011:647 JLINK_ReadReg(FPS9)  returns 0x00000000 (0000ms, 0846ms total)
T1780 011:648 JLINK_ReadReg(FPS10)  returns 0x00000000 (0000ms, 0847ms total)
T1780 011:648 JLINK_ReadReg(FPS11)  returns 0x00000000 (0000ms, 0847ms total)
T1780 011:648 JLINK_ReadReg(FPS12)  returns 0x00000000 (0000ms, 0847ms total)
T1780 011:648 JLINK_ReadReg(FPS13)  returns 0x00000000 (0000ms, 0847ms total)
T1780 011:648 JLINK_ReadReg(FPS14)  returns 0x00000000 (0000ms, 0847ms total)
T1780 011:648 JLINK_ReadReg(FPS15)  returns 0x00000000 (0000ms, 0847ms total)
T1780 011:648 JLINK_ReadReg(FPS16)  returns 0x00000000 (0000ms, 0847ms total)
T1780 011:648 JLINK_ReadReg(FPS17)  returns 0x00000000 (0000ms, 0847ms total)
T1780 011:648 JLINK_ReadReg(FPS18)  returns 0x00000000 (0001ms, 0848ms total)
T1780 011:649 JLINK_ReadReg(FPS19)  returns 0x00000000 (0000ms, 0848ms total)
T1780 011:649 JLINK_ReadReg(FPS20)  returns 0x00000000 (0000ms, 0848ms total)
T1780 011:649 JLINK_ReadReg(FPS31)  returns 0x00000000 (0000ms, 0848ms total)
T1780 011:649 JLINK_ReadReg(FPS7)  returns 0x00000000 (0000ms, 0848ms total)
T1780 011:649 JLINK_ReadReg(FPS8)  returns 0x00000000 (0000ms, 0848ms total)
T1780 011:649 JLINK_ReadReg(FPS9)  returns 0x00000000 (0000ms, 0848ms total)
T1780 011:649 JLINK_ReadReg(FPS10)  returns 0x00000000 (0000ms, 0848ms total)
T1780 011:649 JLINK_ReadReg(FPS11)  returns 0x00000000 (0000ms, 0848ms total)
T1780 011:649 JLINK_ReadReg(FPS12)  returns 0x00000000 (0001ms, 0849ms total)
T1780 011:650 JLINK_ReadReg(FPS13)  returns 0x00000000 (0000ms, 0849ms total)
T1780 011:650 JLINK_ReadReg(FPS14)  returns 0x00000000 (0000ms, 0849ms total)
T1780 011:650 JLINK_ReadReg(FPS15)  returns 0x00000000 (0000ms, 0849ms total)
T1780 011:650 JLINK_ReadReg(FPS16)  returns 0x00000000 (0000ms, 0849ms total)
T1C30 011:667 JLINK_ReadMemU32(0xE0001004, 0x0001 Items, ...) -- CPU_ReadMem(4 bytes @ 0xE0001004) -- Data:  5D 04 00 00  returns 0x01 (0001ms, 0850ms total)
T1C30 011:671 JLINK_ReadMem (0x00000566, 0x0002 Bytes, ...) -- CPU_ReadMem(64 bytes @ 0x00000540) -- Updating C cache (64 bytes @ 0x00000540) -- Read from C cache (2 bytes @ 0x00000566) -- Data:  80 47  returns 0x00 (0002ms, 0852ms total)
T1C30 011:673 JLINK_ReadMem (0x00000568, 0x003C Bytes, ...) -- CPU_ReadMem(64 bytes @ 0x00000580) -- Updating C cache (64 bytes @ 0x00000580) -- Read from C cache (60 bytes @ 0x00000568) -- Data:  01 48 00 47 45 0A 00 00 11 04 00 00 00 20 00 BF ...  returns 0x00 (0002ms, 0854ms total)
T1780 012:013 JLINK_Step() -- Read from C cache (2 bytes @ 0x00000566) -- Simulated  returns 0x00 (0001ms, 0855ms total)
T1780 012:014 JLINK_ReadReg(R15 (PC))  returns 0x00000A44 (0001ms, 0856ms total)
T1780 012:015 JLINK_ReadReg(XPSR)  returns 0x01000000 (0000ms, 0856ms total)
T1780 012:015 JLINK_ReadReg(R0)  returns 0x00000A45 (0000ms, 0856ms total)
T1780 012:015 JLINK_ReadReg(R1)  returns 0x00000000 (0000ms, 0856ms total)
T1780 012:015 JLINK_ReadReg(R2)  returns 0x00000000 (0000ms, 0856ms total)
T1780 012:015 JLINK_ReadReg(R3)  returns 0x00000000 (0000ms, 0856ms total)
T1780 012:015 JLINK_ReadReg(R4)  returns 0x00000000 (0000ms, 0856ms total)
T1780 012:015 JLINK_ReadReg(R5)  returns 0x00000000 (0001ms, 0857ms total)
T1780 012:016 JLINK_ReadReg(R6)  returns 0x00000000 (0000ms, 0857ms total)
T1780 012:016 JLINK_ReadReg(R7)  returns 0x00000000 (0000ms, 0857ms total)
T1780 012:016 JLINK_ReadReg(R8)  returns 0x00000000 (0000ms, 0857ms total)
T1780 012:016 JLINK_ReadReg(R9)  returns 0x00000000 (0000ms, 0857ms total)
T1780 012:016 JLINK_ReadReg(R10)  returns 0x00000000 (0000ms, 0857ms total)
T1780 012:016 JLINK_ReadReg(R11)  returns 0x00000000 (0000ms, 0857ms total)
T1780 012:016 JLINK_ReadReg(R12)  returns 0x00000000 (0000ms, 0857ms total)
T1780 012:016 JLINK_ReadReg(R13 (SP))  returns 0x20030000 (0000ms, 0857ms total)
T1780 012:017 JLINK_ReadReg(R14)  returns 0x00000569 (0000ms, 0858ms total)
T1780 012:017 JLINK_ReadReg(R15 (PC))  returns 0x00000A44 (0000ms, 0858ms total)
T1780 012:017 JLINK_ReadReg(XPSR)  returns 0x01000000 (0000ms, 0858ms total)
T1780 012:017 JLINK_ReadReg(MSP)  returns 0x20030000 (0000ms, 0858ms total)
T1780 012:017 JLINK_ReadReg(PSP)  returns 0x00000000 (0000ms, 0858ms total)
T1780 012:017 JLINK_ReadReg(CFBP)  returns 0x00000000 (0000ms, 0858ms total)
T1780 012:017 JLINK_ReadReg(FPSCR)  returns 0x00000000 (0000ms, 0858ms total)
T1780 012:017 JLINK_ReadReg(FPS0)  returns 0x00000000 (0000ms, 0858ms total)
T1780 012:017 JLINK_ReadReg(FPS1)  returns 0x00000000 (0001ms, 0859ms total)
T1780 012:018 JLINK_ReadReg(FPS2)  returns 0x00000000 (0000ms, 0859ms total)
T1780 012:018 JLINK_ReadReg(FPS3)  returns 0x00000000 (0000ms, 0859ms total)
T1780 012:018 JLINK_ReadReg(FPS4)  returns 0x00000000 (0000ms, 0859ms total)
T1780 012:018 JLINK_ReadReg(FPS5)  returns 0x00000000 (0000ms, 0859ms total)
T1780 012:018 JLINK_ReadReg(FPS6)  returns 0x00000000 (0000ms, 0859ms total)
T1780 012:018 JLINK_ReadReg(FPS7)  returns 0x00000000 (0000ms, 0859ms total)
T1780 012:018 JLINK_ReadReg(FPS8)  returns 0x00000000 (0000ms, 0859ms total)
T1780 012:018 JLINK_ReadReg(FPS9)  returns 0x00000000 (0000ms, 0859ms total)
T1780 012:019 JLINK_ReadReg(FPS10)  returns 0x00000000 (0000ms, 0860ms total)
T1780 012:019 JLINK_ReadReg(FPS11)  returns 0x00000000 (0000ms, 0860ms total)
T1780 012:019 JLINK_ReadReg(FPS12)  returns 0x00000000 (0000ms, 0860ms total)
T1780 012:019 JLINK_ReadReg(FPS13)  returns 0x00000000 (0000ms, 0860ms total)
T1780 012:019 JLINK_ReadReg(FPS14)  returns 0x00000000 (0000ms, 0860ms total)
T1780 012:019 JLINK_ReadReg(FPS15)  returns 0x00000000 (0000ms, 0860ms total)
T1780 012:019 JLINK_ReadReg(FPS16)  returns 0x00000000 (0000ms, 0860ms total)
T1780 012:019 JLINK_ReadReg(FPS17)  returns 0x00000000 (0000ms, 0860ms total)
T1780 012:019 JLINK_ReadReg(FPS18)  returns 0x00000000 (0001ms, 0861ms total)
T1780 012:020 JLINK_ReadReg(FPS19)  returns 0x00000000 (0000ms, 0861ms total)
T1780 012:020 JLINK_ReadReg(FPS20)  returns 0x00000000 (0000ms, 0861ms total)
T1780 012:020 JLINK_ReadReg(FPS31)  returns 0x00000000 (0000ms, 0861ms total)
T1780 012:020 JLINK_ReadReg(FPS7)  returns 0x00000000 (0000ms, 0861ms total)
T1780 012:020 JLINK_ReadReg(FPS8)  returns 0x00000000 (0000ms, 0861ms total)
T1780 012:020 JLINK_ReadReg(FPS9)  returns 0x00000000 (0000ms, 0861ms total)
T1780 012:020 JLINK_ReadReg(FPS10)  returns 0x00000000 (0000ms, 0861ms total)
T1780 012:020 JLINK_ReadReg(FPS11)  returns 0x00000000 (0000ms, 0861ms total)
T1780 012:021 JLINK_ReadReg(FPS12)  returns 0x00000000 (0000ms, 0862ms total)
T1780 012:021 JLINK_ReadReg(FPS13)  returns 0x00000000 (0000ms, 0862ms total)
T1780 012:021 JLINK_ReadReg(FPS14)  returns 0x00000000 (0000ms, 0862ms total)
T1780 012:021 JLINK_ReadReg(FPS15)  returns 0x00000000 (0000ms, 0862ms total)
T1780 012:021 JLINK_ReadReg(FPS16)  returns 0x00000000 (0000ms, 0862ms total)
T1C30 012:039 JLINK_ReadMemU32(0xE0001004, 0x0001 Items, ...) -- Data:  5D 04 00 00  returns 0x01 (0000ms, 0862ms total)
T1C30 012:062 JLINK_ReadMem (0x00000A4C, 0x003C Bytes, ...) -- CPU_ReadMem(128 bytes @ 0x00000A40) -- Updating C cache (128 bytes @ 0x00000A40) -- Read from C cache (60 bytes @ 0x00000A4C) -- Data:  4C F2 20 50 23 49 C8 81 4D F6 28 10 C8 81 4F F4 ...  returns 0x00 (0002ms, 0864ms total)
T1780 012:718 JLINK_ReadMem (0x00000A44, 0x003C Bytes, ...) -- Read from C cache (60 bytes @ 0x00000A44) -- Data:  00 B5 24 48 24 49 08 60 4C F2 20 50 23 49 C8 81 ...  returns 0x00 (0000ms, 0864ms total)
T1780 012:718 JLINK_Step() -- Read from C cache (2 bytes @ 0x00000A44) -- Not simulated -- CPU_WriteMem(4 bytes @ 0xE0001004)  returns 0x00 (0008ms, 0872ms total)
T1780 012:726 JLINK_ReadReg(R15 (PC))  returns 0x00000A46 (0000ms, 0872ms total)
T1780 012:726 JLINK_ReadReg(XPSR)  returns 0x01000000 (0000ms, 0872ms total)
T1780 012:727 JLINK_ReadReg(R0)  returns 0x00000A45 (0000ms, 0872ms total)
T1780 012:727 JLINK_ReadReg(R1)  returns 0x00000000 (0000ms, 0872ms total)
T1780 012:727 JLINK_ReadReg(R2)  returns 0x00000000 (0000ms, 0872ms total)
T1780 012:727 JLINK_ReadReg(R3)  returns 0x00000000 (0000ms, 0872ms total)
T1780 012:727 JLINK_ReadReg(R4)  returns 0x00000000 (0000ms, 0872ms total)
T1780 012:727 JLINK_ReadReg(R5)  returns 0x00000000 (0000ms, 0872ms total)
T1780 012:727 JLINK_ReadReg(R6)  returns 0x00000000 (0000ms, 0872ms total)
T1780 012:727 JLINK_ReadReg(R7)  returns 0x00000000 (0001ms, 0873ms total)
T1780 012:728 JLINK_ReadReg(R8)  returns 0x00000000 (0000ms, 0873ms total)
T1780 012:728 JLINK_ReadReg(R9)  returns 0x00000000 (0000ms, 0873ms total)
T1780 012:728 JLINK_ReadReg(R10)  returns 0x00000000 (0000ms, 0873ms total)
T1780 012:728 JLINK_ReadReg(R11)  returns 0x00000000 (0000ms, 0873ms total)
T1780 012:728 JLINK_ReadReg(R12)  returns 0x00000000 (0000ms, 0873ms total)
T1780 012:728 JLINK_ReadReg(R13 (SP))  returns 0x2002FFFC (0000ms, 0873ms total)
T1780 012:728 JLINK_ReadReg(R14)  returns 0x00000569 (0000ms, 0873ms total)
T1780 012:728 JLINK_ReadReg(R15 (PC))  returns 0x00000A46 (0000ms, 0873ms total)
T1780 012:728 JLINK_ReadReg(XPSR)  returns 0x01000000 (0001ms, 0874ms total)
T1780 012:729 JLINK_ReadReg(MSP)  returns 0x2002FFFC (0000ms, 0874ms total)
T1780 012:729 JLINK_ReadReg(PSP)  returns 0x00000000 (0000ms, 0874ms total)
T1780 012:729 JLINK_ReadReg(CFBP)  returns 0x00000000 (0000ms, 0874ms total)
T1780 012:729 JLINK_ReadReg(FPSCR)  returns 0x00000000 (0006ms, 0880ms total)
T1780 012:735 JLINK_ReadReg(FPS0)  returns 0x00000000 (0000ms, 0880ms total)
T1780 012:735 JLINK_ReadReg(FPS1)  returns 0x00000000 (0000ms, 0880ms total)
T1780 012:735 JLINK_ReadReg(FPS2)  returns 0x00000000 (0000ms, 0880ms total)
T1780 012:735 JLINK_ReadReg(FPS3)  returns 0x00000000 (0000ms, 0880ms total)
T1780 012:735 JLINK_ReadReg(FPS4)  returns 0x00000000 (0001ms, 0881ms total)
T1780 012:736 JLINK_ReadReg(FPS5)  returns 0x00000000 (0000ms, 0881ms total)
T1780 012:736 JLINK_ReadReg(FPS6)  returns 0x00000000 (0000ms, 0881ms total)
T1780 012:736 JLINK_ReadReg(FPS7)  returns 0x00000000 (0000ms, 0881ms total)
T1780 012:736 JLINK_ReadReg(FPS8)  returns 0x00000000 (0000ms, 0881ms total)
T1780 012:736 JLINK_ReadReg(FPS9)  returns 0x00000000 (0000ms, 0881ms total)
T1780 012:736 JLINK_ReadReg(FPS10)  returns 0x00000000 (0000ms, 0881ms total)
T1780 012:736 JLINK_ReadReg(FPS11)  returns 0x00000000 (0000ms, 0881ms total)
T1780 012:736 JLINK_ReadReg(FPS12)  returns 0x00000000 (0000ms, 0881ms total)
T1780 012:736 JLINK_ReadReg(FPS13)  returns 0x00000000 (0000ms, 0881ms total)
T1780 012:736 JLINK_ReadReg(FPS14)  returns 0x00000000 (0000ms, 0881ms total)
T1780 012:736 JLINK_ReadReg(FPS15)  returns 0x00000000 (0000ms, 0881ms total)
T1780 012:736 JLINK_ReadReg(FPS16)  returns 0x00000000 (0000ms, 0881ms total)
T1780 012:736 JLINK_ReadReg(FPS17)  returns 0x00000000 (0000ms, 0881ms total)
T1780 012:736 JLINK_ReadReg(FPS18)  returns 0x00000000 (0001ms, 0882ms total)
T1780 012:737 JLINK_ReadReg(FPS19)  returns 0x00000000 (0000ms, 0882ms total)
T1780 012:737 JLINK_ReadReg(FPS20)  returns 0x00000000 (0000ms, 0882ms total)
T1780 012:737 JLINK_ReadReg(FPS31)  returns 0x00000000 (0000ms, 0882ms total)
T1780 012:737 JLINK_ReadReg(FPS7)  returns 0x00000000 (0000ms, 0882ms total)
T1780 012:737 JLINK_ReadReg(FPS8)  returns 0x00000000 (0000ms, 0882ms total)
T1780 012:737 JLINK_ReadReg(FPS9)  returns 0x00000000 (0000ms, 0882ms total)
T1780 012:737 JLINK_ReadReg(FPS10)  returns 0x00000000 (0000ms, 0882ms total)
T1780 012:737 JLINK_ReadReg(FPS11)  returns 0x00000000 (0000ms, 0882ms total)
T1780 012:737 JLINK_ReadReg(FPS12)  returns 0x00000000 (0000ms, 0882ms total)
T1780 012:737 JLINK_ReadReg(FPS13)  returns 0x00000000 (0000ms, 0882ms total)
T1780 012:737 JLINK_ReadReg(FPS14)  returns 0x00000000 (0000ms, 0882ms total)
T1780 012:737 JLINK_ReadReg(FPS15)  returns 0x00000000 (0000ms, 0882ms total)
T1780 012:737 JLINK_ReadReg(FPS16)  returns 0x00000000 (0000ms, 0882ms total)
T1C30 012:738 JLINK_ReadMem (0x2002FFFC, 0x0004 Bytes, ...) -- CPU_ReadMem(4 bytes @ 0x2002FFFC) -- Data:  69 05 00 00  returns 0x00 (0001ms, 0883ms total)
T1C30 012:739 JLINK_ReadMemU32(0xE0001004, 0x0001 Items, ...) -- CPU_ReadMem(4 bytes @ 0xE0001004) -- Data:  60 04 00 00  returns 0x01 (0001ms, 0884ms total)
T1780 013:717 JLINK_ReadMem (0x00000A46, 0x0002 Bytes, ...) -- CPU_ReadMem(64 bytes @ 0x00000A40) -- Updating C cache (64 bytes @ 0x00000A40) -- Read from C cache (2 bytes @ 0x00000A46) -- Data:  24 48  returns 0x00 (0003ms, 0887ms total)
T1780 013:720 JLINK_ReadMem (0x00000A48, 0x003C Bytes, ...) -- CPU_ReadMem(64 bytes @ 0x00000A80) -- Updating C cache (64 bytes @ 0x00000A80) -- Read from C cache (60 bytes @ 0x00000A48) -- Data:  24 49 08 60 4C F2 20 50 23 49 C8 81 4D F6 28 10 ...  returns 0x00 (0001ms, 0888ms total)
T1780 013:721 JLINK_Step() -- Read from C cache (2 bytes @ 0x00000A46) -- CPU_ReadMem(64 bytes @ 0x00000AC0) -- Updating C cache (64 bytes @ 0x00000AC0) -- Read from C cache (4 bytes @ 0x00000AD8) -- Simulated  returns 0x00 (0003ms, 0891ms total)
T1780 013:724 JLINK_ReadReg(R15 (PC))  returns 0x00000A48 (0000ms, 0891ms total)
T1780 013:724 JLINK_ReadReg(XPSR)  returns 0x01000000 (0000ms, 0891ms total)
T1780 013:724 JLINK_Step() -- Read from C cache (2 bytes @ 0x00000A48) -- Read from C cache (4 bytes @ 0x00000ADC) -- Simulated  returns 0x00 (0001ms, 0892ms total)
T1780 013:725 JLINK_ReadReg(R15 (PC))  returns 0x00000A4A (0000ms, 0892ms total)
T1780 013:725 JLINK_ReadReg(XPSR)  returns 0x01000000 (0000ms, 0892ms total)
T1780 013:725 JLINK_Step() -- Read from C cache (2 bytes @ 0x00000A4A) -- Not simulated -- CPU_WriteMem(4 bytes @ 0xE0001004)  returns 0x00 (0007ms, 0899ms total)
T1780 013:732 JLINK_ReadReg(R15 (PC))  returns 0x00000A4C (0000ms, 0899ms total)
T1780 013:732 JLINK_ReadReg(XPSR)  returns 0x01000000 (0000ms, 0899ms total)
T1780 013:733 JLINK_ReadReg(R0)  returns 0x00000000 (0000ms, 0899ms total)
T1780 013:733 JLINK_ReadReg(R1)  returns 0xE000ED08 (0000ms, 0899ms total)
T1780 013:733 JLINK_ReadReg(R2)  returns 0x00000000 (0000ms, 0899ms total)
T1780 013:733 JLINK_ReadReg(R3)  returns 0x00000000 (0000ms, 0899ms total)
T1780 013:733 JLINK_ReadReg(R4)  returns 0x00000000 (0000ms, 0899ms total)
T1780 013:733 JLINK_ReadReg(R5)  returns 0x00000000 (0000ms, 0899ms total)
T1780 013:733 JLINK_ReadReg(R6)  returns 0x00000000 (0000ms, 0899ms total)
T1780 013:733 JLINK_ReadReg(R7)  returns 0x00000000 (0000ms, 0899ms total)
T1780 013:734 JLINK_ReadReg(R8)  returns 0x00000000 (0000ms, 0900ms total)
T1780 013:734 JLINK_ReadReg(R9)  returns 0x00000000 (0000ms, 0900ms total)
T1780 013:734 JLINK_ReadReg(R10)  returns 0x00000000 (0000ms, 0900ms total)
T1780 013:734 JLINK_ReadReg(R11)  returns 0x00000000 (0000ms, 0900ms total)
T1780 013:734 JLINK_ReadReg(R12)  returns 0x00000000 (0000ms, 0900ms total)
T1780 013:734 JLINK_ReadReg(R13 (SP))  returns 0x2002FFFC (0000ms, 0900ms total)
T1780 013:734 JLINK_ReadReg(R14)  returns 0x00000569 (0000ms, 0900ms total)
T1780 013:734 JLINK_ReadReg(R15 (PC))  returns 0x00000A4C (0000ms, 0900ms total)
T1780 013:734 JLINK_ReadReg(XPSR)  returns 0x01000000 (0001ms, 0901ms total)
T1780 013:735 JLINK_ReadReg(MSP)  returns 0x2002FFFC (0000ms, 0901ms total)
T1780 013:735 JLINK_ReadReg(PSP)  returns 0x00000000 (0000ms, 0901ms total)
T1780 013:735 JLINK_ReadReg(CFBP)  returns 0x00000000 (0000ms, 0901ms total)
T1780 013:735 JLINK_ReadReg(FPSCR)  returns 0x00000000 (0006ms, 0907ms total)
T1780 013:741 JLINK_ReadReg(FPS0)  returns 0x00000000 (0000ms, 0907ms total)
T1780 013:741 JLINK_ReadReg(FPS1)  returns 0x00000000 (0000ms, 0907ms total)
T1780 013:741 JLINK_ReadReg(FPS2)  returns 0x00000000 (0000ms, 0907ms total)
T1780 013:741 JLINK_ReadReg(FPS3)  returns 0x00000000 (0000ms, 0907ms total)
T1780 013:741 JLINK_ReadReg(FPS4)  returns 0x00000000 (0001ms, 0908ms total)
T1780 013:742 JLINK_ReadReg(FPS5)  returns 0x00000000 (0000ms, 0908ms total)
T1780 013:742 JLINK_ReadReg(FPS6)  returns 0x00000000 (0000ms, 0908ms total)
T1780 013:742 JLINK_ReadReg(FPS7)  returns 0x00000000 (0000ms, 0908ms total)
T1780 013:742 JLINK_ReadReg(FPS8)  returns 0x00000000 (0000ms, 0908ms total)
T1780 013:742 JLINK_ReadReg(FPS9)  returns 0x00000000 (0000ms, 0908ms total)
T1780 013:742 JLINK_ReadReg(FPS10)  returns 0x00000000 (0000ms, 0908ms total)
T1780 013:742 JLINK_ReadReg(FPS11)  returns 0x00000000 (0000ms, 0908ms total)
T1780 013:742 JLINK_ReadReg(FPS12)  returns 0x00000000 (0001ms, 0909ms total)
T1780 013:743 JLINK_ReadReg(FPS13)  returns 0x00000000 (0000ms, 0909ms total)
T1780 013:743 JLINK_ReadReg(FPS14)  returns 0x00000000 (0000ms, 0909ms total)
T1780 013:743 JLINK_ReadReg(FPS15)  returns 0x00000000 (0000ms, 0909ms total)
T1780 013:743 JLINK_ReadReg(FPS16)  returns 0x00000000 (0000ms, 0909ms total)
T1780 013:743 JLINK_ReadReg(FPS17)  returns 0x00000000 (0000ms, 0909ms total)
T1780 013:743 JLINK_ReadReg(FPS18)  returns 0x00000000 (0000ms, 0909ms total)
T1780 013:743 JLINK_ReadReg(FPS19)  returns 0x00000000 (0000ms, 0909ms total)
T1780 013:743 JLINK_ReadReg(FPS20)  returns 0x00000000 (0000ms, 0909ms total)
T1780 013:743 JLINK_ReadReg(FPS31)  returns 0x00000000 (0001ms, 0910ms total)
T1780 013:744 JLINK_ReadReg(FPS7)  returns 0x00000000 (0000ms, 0910ms total)
